# Hz S DB R 50
! CMT, C4420, 18068703, 18.2.2/3
! Date: 10/6/2025 4:40:48 PM
! Data: Format (Calibration Info)
! Freq                      S33: dB/Ang (F2)                      S43: dB/Ang (F2)                      S34: dB/Ang (F2)                      S44: dB/Ang (F2)           
1.00000000000E+05 -9.54275482283E+00 +1.74433551721E+02 -9.42293534242E+00 -3.09518967028E+00 -9.40178009510E+00 -3.50635914576E+00 -2.14761234537E+01 +1.74367378268E+02
2.09999000000E+06 -6.52410171931E+00 +9.39975290026E+01 -1.08179188194E+01 -4.93013131857E+01 -1.09470005432E+01 -4.99006111374E+01 -1.41104907263E+01 +8.91183963918E+01
4.09998000000E+06 -7.51019259809E+00 +5.66061797584E+01 -1.07924092726E+01 -8.92101137189E+01 -1.09593952749E+01 -8.82951101884E+01 -1.62732128443E+01 +9.97402977773E+01
6.09997000000E+06 -1.28663182299E+01 +1.29650401073E+01 -1.03381304196E+01 -1.31525926428E+02 -1.03055256421E+01 -1.30454839861E+02 -1.39689343022E+01 +1.12340769578E+02
8.09996000000E+06 -2.04620921022E+01 -1.65162704837E+02 -1.01074546111E+01 -1.78135391261E+02 -9.99767814744E+00 -1.77958801143E+02 -1.24182515342E+01 +1.03825716670E+02
1.00999500000E+07 -9.33668656589E+00 +1.32066439683E+02 -1.06091290438E+01 +1.36064329543E+02 -1.05979729276E+01 +1.35498152760E+02 -1.32032186820E+01 +9.38895709065E+01
1.20999400000E+07 -6.89998729081E+00 +9.45941804977E+01 -1.11991767748E+01 +9.49431642403E+01 -1.13142075095E+01 +9.48230412528E+01 -1.48070025952E+01 +9.59198341762E+01
1.40999300000E+07 -7.28847168885E+00 +6.05394398862E+01 -1.12217347749E+01 +5.62054646943E+01 -1.13217498361E+01 +5.68968146246E+01 -1.48752732072E+01 +1.03536101428E+02
1.60999200000E+07 -1.07791343892E+01 +2.11582036491E+01 -1.06515252196E+01 +1.52644310869E+01 -1.06313020407E+01 +1.61942839262E+01 -1.42151305263E+01 +1.00525482687E+02
1.80999100000E+07 -2.36477937999E+01 -8.58044349974E+01 -1.01534738583E+01 -3.05787900576E+01 -1.00540971262E+01 -3.04058898198E+01 -1.54070591106E+01 +8.88740651587E+01
2.00999000000E+07 -1.10599107908E+01 +1.45559732499E+02 -1.04507742778E+01 -7.74837629371E+01 -1.04433741684E+01 -7.80464569937E+01 -1.93913934989E+01 +9.13745846755E+01
2.20998900000E+07 -7.20149154269E+00 +1.02891868396E+02 -1.11104573137E+01 -1.19615266275E+02 -1.12419086372E+01 -1.19850602055E+02 -2.03050499276E+01 +1.18212693467E+02
2.40998800000E+07 -6.73581633685E+00 +6.62590812669E+01 -1.12433337114E+01 -1.58062642520E+02 -1.13826386312E+01 -1.57406582471E+02 -1.90455561145E+01 +1.22849584815E+02
2.60998700000E+07 -8.89231112006E+00 +2.41261977673E+01 -1.06326143980E+01 +1.61903882124E+02 -1.06538171271E+01 +1.62917448059E+02 -2.07264689635E+01 +1.18452344051E+02
2.80998600000E+07 -1.65307787811E+01 -5.70835271868E+01 -9.94167141076E+00 +1.15921300470E+02 -9.88101397155E+00 +1.16274507773E+02 -2.48105698880E+01 +1.53634537361E+02
3.00998500000E+07 -1.16622206145E+01 +1.64234800722E+02 -1.02141643637E+01 +6.76521889622E+01 -1.02399747327E+01 +6.73170419090E+01 -1.88407076879E+01 +1.78360579463E+02
3.20998400000E+07 -7.22931821069E+00 +1.09770381175E+02 -1.10362292792E+01 +2.50359707790E+01 -1.11878382740E+01 +2.50230548590E+01 -1.67973698600E+01 +1.68142480347E+02
3.40998300000E+07 -6.46097029665E+00 +6.92106205298E+01 -1.12731162182E+01 -1.30813840943E+01 -1.14219841224E+01 -1.21940739065E+01 -1.72353038423E+01 +1.64451184000E+02
3.60998200000E+07 -8.12616295083E+00 +2.44072259014E+01 -1.06910729618E+01 -5.28254080979E+01 -1.07107086091E+01 -5.15654517831E+01 -1.73672351781E+01 +1.75652185766E+02
3.80998100000E+07 -1.40315494118E+01 -5.16462673036E+01 -1.00469802602E+01 -9.87465973354E+01 -9.97260480021E+00 -9.81658750292E+01 -1.48580866523E+01 -1.79045245888E+02
4.00998000000E+07 -1.22543908834E+01 +1.76171521635E+02 -1.03832569841E+01 -1.46668036898E+02 -1.03846432988E+01 -1.46794692927E+02 -1.35023751364E+01 +1.69276380809E+02
4.20997900000E+07 -7.93155337052E+00 +1.16012466739E+02 -1.11997385445E+01 +1.71004108491E+02 -1.13091435959E+01 +1.71169515147E+02 -1.42214889455E+01 +1.60502030609E+02
4.40997800000E+07 -6.97675050349E+00 +7.34703539280E+01 -1.14672100536E+01 +1.32756873525E+02 -1.15596860924E+01 +1.33727055960E+02 -1.51307562207E+01 +1.61953409642E+02
4.60997700000E+07 -8.33965596797E+00 +2.87648558389E+01 -1.10195086527E+01 +9.31288557709E+01 -1.09825549597E+01 +9.42816480781E+01 -1.46332519162E+01 +1.65356076220E+02
4.80997600000E+07 -1.33305828377E+01 -3.85129778051E+01 -1.04958248046E+01 +4.85310173129E+01 -1.03858110449E+01 +4.88892783454E+01 -1.37975878452E+01 +1.57837978103E+02
5.00997500000E+07 -1.41750535957E+01 -1.63706324171E+02 -1.07019941863E+01 +2.08351136812E+00 -1.06780450910E+01 +1.77971247200E+00 -1.46847590719E+01 +1.45314652454E+02
5.20997400000E+07 -9.35324251141E+00 +1.28040118533E+02 -1.13350707167E+01 -4.03562801940E+01 -1.14119429848E+01 -4.03819787367E+01 -1.67912984801E+01 +1.41512226039E+02
5.40997300000E+07 -7.80321611701E+00 +8.31715195530E+01 -1.15963906150E+01 -7.92464117387E+01 -1.16551176418E+01 -7.86246580436E+01 -1.79280578823E+01 +1.45775003493E+02
5.60997200000E+07 -8.47569052243E+00 +3.83869950684E+01 -1.12514245510E+01 -1.18721728167E+02 -1.12118176568E+01 -1.18048578551E+02 -1.79292498747E+01 +1.42638422900E+02
5.80997100000E+07 -1.19276917468E+01 -2.21357394612E+01 -1.07285818392E+01 -1.62031293115E+02 -1.06585620266E+01 -1.62110215990E+02 -1.90562932819E+01 +1.27381068953E+02
6.00997000000E+07 -1.48659718502E+01 -1.29544681044E+02 -1.07150142826E+01 +1.52163439334E+02 -1.07429438356E+01 +1.51711328514E+02 -2.32420423915E+01 +1.10390118306E+02
6.20996900000E+07 -1.06262539930E+01 +1.46661842342E+02 -1.11724751570E+01 +1.08858927629E+02 -1.12777782823E+01 +1.08863707447E+02 -3.05430853140E+01 +1.15702619243E+02
6.40996800000E+07 -8.50849930339E+00 +9.46521961891E+01 -1.14257173911E+01 +6.89443643103E+01 -1.15024486354E+01 +6.94995228028E+01 -3.47249213404E+01 +1.43841860889E+02
6.60996700000E+07 -8.59989925942E+00 +4.55105975958E+01 -1.11670949708E+01 +2.89906243398E+01 -1.11544452002E+01 +2.95478343735E+01 -4.71654665970E+01 +9.89565642787E+01
6.80996600000E+07 -1.09378928967E+01 -1.63652268167E+01 -1.07016995409E+01 -1.41191349617E+01 -1.06847423438E+01 -1.41162443301E+01 -3.00316170816E+01 -4.51728634901E+01
7.00996500000E+07 -1.34752557109E+01 -1.09850371313E+02 -1.06505164676E+01 -5.95776844543E+01 -1.07033438550E+01 -5.96880498199E+01 -2.35453729541E+01 -7.30212358589E+01
7.20996400000E+07 -1.10458174833E+01 +1.62847406477E+02 -1.10188633559E+01 -1.03112873648E+02 -1.11034931844E+01 -1.02798705543E+02 -2.15965251418E+01 -9.20825651494E+01
7.40996300000E+07 -9.13227642938E+00 +1.03473706992E+02 -1.12415338271E+01 -1.43813555658E+02 -1.12766942426E+01 -1.43181405672E+02 -2.11499744994E+01 -9.94890004296E+01
7.60996200000E+07 -9.11064936569E+00 +4.88603595742E+01 -1.10593445774E+01 +1.75445768315E+02 -1.10304111603E+01 +1.75905594789E+02 -2.00937500143E+01 -1.00275719078E+02
7.80996100000E+07 -1.09149543061E+01 -1.58073716082E+01 -1.07557626101E+01 +1.32276663527E+02 -1.07347870577E+01 +1.32348678260E+02 -1.84182524051E+01 -1.06899013519E+02
8.00996000000E+07 -1.27810601542E+01 -1.01189384072E+02 -1.07651589547E+01 +8.77299446886E+01 -1.07916523059E+01 +8.77805929182E+01 -1.75752802557E+01 -1.19835273663E+02
8.20995900000E+07 -1.15508714723E+01 +1.75783406296E+02 -1.10344815481E+01 +4.46879733123E+01 -1.10651235780E+01 +4.49670244656E+01 -1.77842135538E+01 -1.31751189167E+02
8.40995800000E+07 -1.01818339425E+01 +1.11879128507E+02 -1.11753427678E+01 +3.41417517178E+00 -1.11699874736E+01 +3.78510389976E+00 -1.81970249166E+01 -1.39563816395E+02
8.60995700000E+07 -1.02257512776E+01 +5.24569787467E+01 -1.10631116270E+01 -3.80414825113E+01 -1.10316791234E+01 -3.78882270763E+01 -1.81558854133E+01 -1.47040935283E+02
8.80995600000E+07 -1.15506166856E+01 -1.44176651401E+01 -1.09036196299E+01 -8.09707096822E+01 -1.08915317075E+01 -8.09971288335E+01 -1.79862358134E+01 -1.58726111112E+02
9.00995500000E+07 -1.26614055847E+01 -9.32556957680E+01 -1.09221026347E+01 -1.24454657047E+02 -1.09352100620E+01 -1.24441057541E+02 -1.82727469525E+01 -1.73364465685E+02
9.20995400000E+07 -1.20928951889E+01 -1.70160638955E+02 -1.10460198920E+01 -1.67077402405E+02 -1.10598806754E+01 -1.66950893956E+02 -1.89279615354E+01 +1.72728727771E+02
9.40995300000E+07 -1.13875864016E+01 +1.23003170856E+02 -1.10802680817E+01 +1.51031171735E+02 -1.10788391745E+01 +1.51171564787E+02 -1.94114370018E+01 +1.60273998209E+02
9.60995200000E+07 -1.15692209648E+01 +5.78561056506E+01 -1.10002234194E+01 +1.08809317417E+02 -1.09973646187E+01 +1.08876280723E+02 -1.94937600268E+01 +1.46813206019E+02
9.80995100000E+07 -1.22627570153E+01 -1.30114385286E+01 -1.09426058103E+01 +6.59262346302E+01 -1.09448157980E+01 +6.59679210586E+01 -1.94810644222E+01 +1.31360757898E+02
1.00099500000E+08 -1.23779918020E+01 -8.77936522563E+01 -1.09636586210E+01 +2.30408997623E+01 -1.09641339779E+01 +2.30977024626E+01 -1.96143439195E+01 +1.15955204973E+02
1.02099490000E+08 -1.20726811036E+01 -1.58973388545E+02 -1.09823248501E+01 -1.94174670594E+01 -1.09708004792E+01 -1.94161870584E+01 -2.00071721517E+01 +1.03170388981E+02
1.04099480000E+08 -1.18240306682E+01 +1.32512346602E+02 -1.09351475064E+01 -6.20267519384E+01 -1.09259520143E+01 -6.21491743831E+01 -2.02944767165E+01 +8.97667210090E+01
1.06099470000E+08 -1.20114682492E+01 +6.36446494329E+01 -1.09196407768E+01 -1.05181410419E+02 -1.09237328028E+01 -1.05264205494E+02 -2.07410951749E+01 +7.44709111690E+01
1.08099460000E+08 -1.24381292011E+01 -7.53769972646E+00 -1.09996806522E+01 -1.48076406052E+02 -1.09935525143E+01 -1.48084142367E+02 -2.15320946045E+01 +5.91703009824E+01
1.10099450000E+08 -1.24670282283E+01 -7.98207184230E+01 -1.10487234319E+01 +1.69765759883E+02 -1.10196421599E+01 +1.69686351165E+02 -2.22993418405E+01 +4.54971362328E+01
1.12099440000E+08 -1.19641285768E+01 -1.50288543050E+02 -1.09603617039E+01 +1.27563257031E+02 -1.09375334532E+01 +1.27218998284E+02 -2.25746687554E+01 +3.09282901374E+01
1.14099430000E+08 -1.15414966860E+01 +1.40964135930E+02 -1.08368622104E+01 +8.42642257566E+01 -1.08655853734E+01 +8.38099638363E+01 -2.26701440556E+01 +1.13655271285E+01
1.16099420000E+08 -1.17018166960E+01 +7.19463938573E+01 -1.08964979339E+01 +4.03365832157E+01 -1.09712831697E+01 +4.01903327217E+01 -2.32548849694E+01 -1.15832527500E+01
1.18099410000E+08 -1.22057745523E+01 +1.77932307902E+00 -1.11126883536E+01 -2.45121777450E+00 -1.11662261795E+01 -2.21571640587E+00 -2.43114717275E+01 -3.20070642306E+01
1.20099400000E+08 -1.22966698984E+01 -6.88536061342E+01 -1.12026665076E+01 -4.38260975206E+01 -1.12100242582E+01 -4.36170839575E+01 -2.49058857757E+01 -4.62929571327E+01
1.22099390000E+08 -1.17708003058E+01 -1.38567257938E+02 -1.10270719621E+01 -8.55378850957E+01 -1.10412782049E+01 -8.56455248359E+01 -2.41182059786E+01 -5.96781793156E+01
1.24099380000E+08 -1.12792536726E+01 +1.52156495921E+02 -1.08078137970E+01 -1.29275512003E+02 -1.08875786881E+01 -1.29362866174E+02 -2.27704999235E+01 -7.97196600321E+01
1.26099370000E+08 -1.14604400239E+01 +8.22079052804E+01 -1.09060419662E+01 -1.73988321929E+02 -1.10094648400E+01 -1.73526914124E+02 -2.22280119623E+01 -1.03451548407E+02
1.28099360000E+08 -1.20463804398E+01 +1.18889398855E+01 -1.12489238265E+01 +1.43105896157E+02 -1.12835249369E+01 +1.44012485538E+02 -2.26642891861E+01 -1.22609475664E+02
1.30099350000E+08 -1.21601356390E+01 -5.81352992425E+01 -1.14134558857E+01 +1.02319688070E+02 -1.13694007377E+01 +1.03066137517E+02 -2.30579785057E+01 -1.32680814674E+02
1.32099340000E+08 -1.15208155484E+01 -1.27101070961E+02 -1.12029275372E+01 +6.12244539232E+01 -1.11565316595E+01 +6.15705477511E+01 -2.21869746206E+01 -1.39515254398E+02
1.34099330000E+08 -1.08323658883E+01 +1.64045579021E+02 -1.08963195453E+01 +1.74793500318E+01 -1.08991632643E+01 +1.78198797634E+01 -2.07218450310E+01 -1.53741775969E+02
1.36099320000E+08 -1.09074194609E+01 +9.44810387440E+01 -1.09825653011E+01 -2.78398473719E+01 -1.09841294603E+01 -2.70355230838E+01 -2.02635959400E+01 -1.73364380962E+02
1.38099310000E+08 -1.15890200389E+01 +2.52842637987E+01 -1.14176768394E+01 -7.10187135798E+01 -1.13347829029E+01 -7.00101794423E+01 -2.10044133900E+01 +1.70877972190E+02
1.40099300000E+08 -1.19358293816E+01 -4.33920997993E+01 -1.16707646225E+01 -1.11388690384E+02 -1.15135642988E+01 -1.10803273179E+02 -2.17173903200E+01 +1.63824738184E+02
1.42099290000E+08 -1.14408317564E+01 -1.11845989271E+02 -1.14639421477E+01 -1.51765592679E+02 -1.13167660631E+01 -1.51783685891E+02 -2.11641480297E+01 +1.58611255736E+02
1.44099280000E+08 -1.06759595342E+01 +1.78992742543E+02 -1.10735247112E+01 +1.64873554399E+02 -1.09930548558E+01 +1.64674351961E+02 -2.01319733345E+01 +1.45041015744E+02
1.46099270000E+08 -1.05819146805E+01 +1.08810334868E+02 -1.10853906604E+01 +1.19225937913E+02 -1.10294509967E+01 +1.19338584863E+02 -2.02195335529E+01 +1.25528879096E+02
1.48099260000E+08 -1.12137091540E+01 +3.95178272459E+01 -1.15535118353E+01 +7.55799801799E+01 -1.14439989278E+01 +7.57905173001E+01 -2.15884984347E+01 +1.10267978109E+02
1.50099250000E+08 -1.16706329754E+01 -2.85770049582E+01 -1.18870072716E+01 +3.52554789356E+01 -1.17353887111E+01 +3.50291781155E+01 -2.28012972837E+01 +1.04136113566E+02
1.52099240000E+08 -1.13264594336E+01 -9.66798070230E+01 -1.17231539585E+01 -4.60535772229E+00 -1.16204846682E+01 -5.40389556657E+00 -2.25736880914E+01 +9.84517855579E+01
1.54099230000E+08 -1.05851180480E+01 -1.66031102040E+02 -1.12901229229E+01 -4.73713529545E+01 -1.12915370350E+01 -4.82061639404E+01 -2.19361419534E+01 +8.28314833617E+01
1.56099220000E+08 -1.04033148062E+01 +1.23049816890E+02 -1.12074415305E+01 -9.29423544939E+01 -1.12552494571E+01 -9.32222449865E+01 -2.25009323359E+01 +6.00896664065E+01
1.58099210000E+08 -1.10124896302E+01 +5.27715736464E+01 -1.16332065763E+01 -1.37012898167E+02 -1.16300715197E+01 -1.36974021885E+02 -2.45474491025E+01 +4.06012427246E+01
1.60099200000E+08 -1.15708780234E+01 -1.63238486334E+01 -1.19955654006E+01 -1.77657605067E+02 -1.19522940388E+01 -1.77951135194E+02 -2.66002755757E+01 +3.10350117662E+01
1.62099190000E+08 -1.13555320390E+01 -8.55101339002E+01 -1.18902932306E+01 +1.42498456459E+02 -1.19033957815E+01 +1.41826796509E+02 -2.68296562148E+01 +2.31382147542E+01
1.64099180000E+08 -1.06368918022E+01 -1.55658665998E+02 -1.14907342010E+01 +1.00148261471E+02 -1.16007631659E+01 +9.97455521377E+01 -2.60361441623E+01 +2.96640608953E+00
1.66099170000E+08 -1.03553861654E+01 +1.33230593513E+02 -1.13704869582E+01 +5.50367411149E+01 -1.14802108139E+01 +5.53885966362E+01 -2.59764143007E+01 -2.79238266375E+01
1.68099160000E+08 -1.08474131490E+01 +6.30239000178E+01 -1.17193176779E+01 +1.09996743970E+01 -1.17371812793E+01 +1.16138752409E+01 -2.70869829049E+01 -5.91190768115E+01
1.70099150000E+08 -1.14240463449E+01 -5.96559203972E+00 -1.20496612470E+01 -3.00084278142E+01 -1.20160292825E+01 -2.97681020700E+01 -2.85289004194E+01 -8.10834845131E+01
1.72099140000E+08 -1.13814112221E+01 -7.50917788059E+01 -1.19834192827E+01 -7.01051969875E+01 -1.19927676600E+01 -7.02148494562E+01 -2.85989187414E+01 -9.26650620935E+01
1.74099130000E+08 -1.08794202313E+01 -1.44844231656E+02 -1.16510478451E+01 -1.12174627519E+02 -1.17162548521E+01 -1.11986280753E+02 -2.67703656409E+01 -1.06213316349E+02
1.76099120000E+08 -1.07268796620E+01 +1.45019246195E+02 -1.15017934215E+01 -1.56493056133E+02 -1.15370665683E+01 -1.55788863905E+02 -2.49436882733E+01 -1.28019676546E+02
1.78099110000E+08 -1.13013566086E+01 +7.52278696113E+01 -1.17019392265E+01 +1.59713584125E+02 -1.16536039531E+01 +1.60403371736E+02 -2.42811126068E+01 -1.51165658388E+02
1.80099100000E+08 -1.20640974862E+01 +4.91245506016E+00 -1.19171870324E+01 +1.18006656981E+02 -1.18372147030E+01 +1.18247735796E+02 -2.44502813031E+01 -1.68547962245E+02
1.82099090000E+08 -1.22363872811E+01 -6.71030755240E+01 -1.18753820994E+01 +7.69316345282E+01 -1.18327815546E+01 +7.68522025973E+01 -2.44438824308E+01 -1.79263483720E+02
1.84099080000E+08 -1.17902060108E+01 -1.39037866685E+02 -1.16740762054E+01 +3.46008506659E+01 -1.16743993150E+01 +3.46472208197E+01 -2.37153943022E+01 +1.70712098319E+02
1.86099070000E+08 -1.14929145599E+01 +1.50863635716E+02 -1.15930266383E+01 -8.99530010636E+00 -1.15791818955E+01 -8.71825459200E+00 -2.29320444203E+01 +1.56433853309E+02
1.88099060000E+08 -1.17925431959E+01 +8.20974707277E+01 -1.16970759681E+01 -5.21985837675E+01 -1.16494085855E+01 -5.19868098196E+01 -2.28186665960E+01 +1.40495237439E+02
1.90099050000E+08 -1.23773431573E+01 +1.21704424122E+01 -1.17960025951E+01 -9.43537185776E+01 -1.17471962949E+01 -9.44120169460E+01 -2.32302709399E+01 +1.27040480276E+02
1.92099040000E+08 -1.25815689013E+01 -6.03336157630E+01 -1.17680732796E+01 -1.36334124232E+02 -1.17517732033E+01 -1.36502471500E+02 -2.36137299270E+01 +1.16237506362E+02
1.94099030000E+08 -1.22460221975E+01 -1.32601757893E+02 -1.16973934354E+01 -1.78929389214E+02 -1.17054389716E+01 -1.78971259705E+02 -2.38211426399E+01 +1.04979130768E+02
1.96099020000E+08 -1.19399143596E+01 +1.58103523424E+02 -1.16848201553E+01 +1.38194808784E+02 -1.16871219828E+01 +1.38282980069E+02 -2.42080843903E+01 +9.20598985902E+01
1.98099010000E+08 -1.20998432128E+01 +9.02923742982E+01 -1.17009975927E+01 +9.55821649879E+01 -1.16961735980E+01 +9.56714502015E+01 -2.49150252743E+01 +7.89167587131E+01
2.00099000000E+08 -1.25604792345E+01 +2.01380567453E+01 -1.16763957218E+01 +5.30107007930E+01 -1.16765556896E+01 +5.30885097675E+01 -2.57009840433E+01 +6.56172173653E+01
2.02098990000E+08 -1.27686834481E+01 -5.36996378748E+01 -1.16560813042E+01 +1.00675609484E+01 -1.16569821551E+01 +1.01914003214E+01 -2.66058894840E+01 +4.90585808127E+01
2.04098980000E+08 -1.24418247318E+01 -1.26599310768E+02 -1.17241920055E+01 -3.28744261588E+01 -1.17094987935E+01 -3.27584537156E+01 -2.80650828305E+01 +2.84935363112E+01
2.06098970000E+08 -1.20842003231E+01 +1.65114104992E+02 -1.18094536643E+01 -7.51062360662E+01 -1.17923439983E+01 -7.51052642640E+01 -3.01715526497E+01 +6.50004656431E+00
2.08098960000E+08 -1.20701106088E+01 +9.86440830625E+01 -1.17658828013E+01 -1.16947232474E+02 -1.17703994402E+01 -1.17043825717E+02 -3.19566852047E+01 -1.38105459726E+01
2.10098950000E+08 -1.23173505648E+01 +2.88538773277E+01 -1.16119799098E+01 -1.59703380794E+02 -1.16378139065E+01 -1.59649980897E+02 -3.17080544277E+01 -3.64579583641E+01
2.12098940000E+08 -1.24421067511E+01 -4.54447202710E+01 -1.15767907931E+01 +1.56370402878E+02 -1.15854886586E+01 +1.56631804857E+02 -2.98523307215E+01 -6.74512054551E+01
2.14098930000E+08 -1.22609844491E+01 -1.18673231660E+02 -1.17789297293E+01 +1.12903107151E+02 -1.17476988662E+01 +1.13069675025E+02 -2.81799794817E+01 -1.00818390952E+02
2.16098920000E+08 -1.20405747711E+01 +1.73158526181E+02 -1.19845393244E+01 +7.12323172825E+01 -1.19589146221E+01 +7.10766534828E+01 -2.75524358161E+01 -1.28442351600E+02
2.18098910000E+08 -1.19659440347E+01 +1.06690999211E+02 -1.19177045486E+01 +3.01794347859E+01 -1.19427594552E+01 +2.99464700561E+01 -2.76596245120E+01 -1.44310852380E+02
2.20098900000E+08 -1.19897066287E+01 +3.63528760841E+01 -1.16493767155E+01 -1.25510888754E+01 -1.17112354243E+01 -1.24471190849E+01 -2.67258042998E+01 -1.49108638537E+02
2.22098890000E+08 -1.19970080961E+01 -3.85610666245E+01 -1.16003995300E+01 -5.73002984549E+01 -1.16196819097E+01 -5.68486829491E+01 -2.43629692608E+01 -1.59936421931E+02
2.24098880000E+08 -1.19599115638E+01 -1.11584419065E+02 -1.19404151547E+01 -1.01127922025E+02 -1.18973070982E+01 -1.00851641211E+02 -2.28909841874E+01 -1.79995388875E+02
2.26098870000E+08 -1.19220897908E+01 -1.78807141857E+02 -1.22649214272E+01 -1.42133649089E+02 -1.22357396529E+01 -1.42279232841E+02 -2.29690908366E+01 +1.60652213380E+02
2.28098860000E+08 -1.18639439731E+01 +1.16047742651E+02 -1.21877164661E+01 +1.77831899218E+02 -1.22233981173E+01 +1.77629732082E+02 -2.39356417849E+01 +1.49671406326E+02
