# Hz S DB R 50
! CMT, C4420, 18068703, 18.2.2/3
! Date: 4/9/2026 10:16:23 AM
! Data: Format (Calibration Info)
! Freq                        S33: dB/Ang                           S43: dB/Ang                           S34: dB/Ang                           S44: dB/Ang              
1.00000000000E+05 -2.00000000000E+02 +0.00000000000E+00 -2.00000000000E+02 +0.00000000000E+00 -5.96135826557E+01 +5.58867311242E+01 -3.78862362776E+01 -7.05649541217E+01
1.09999500000E+06 -2.00000000000E+02 +0.00000000000E+00 -2.00000000000E+02 +0.00000000000E+00 -5.67090130264E+01 +2.61856710979E+01 -4.64814958120E+01 +7.10410016429E+01
2.09999000000E+06 -2.00000000000E+02 +0.00000000000E+00 -2.00000000000E+02 +0.00000000000E+00 -4.44082567461E+01 +1.26734447269E+02 -3.70587528546E+01 +5.80256648077E+01
3.09998500000E+06 -2.00000000000E+02 +0.00000000000E+00 -2.00000000000E+02 +0.00000000000E+00 -3.50294470227E+01 +1.04455860512E+02 -3.33411544290E+01 +3.62463517517E+01
4.09998000000E+06 -2.00000000000E+02 +0.00000000000E+00 -2.00000000000E+02 +0.00000000000E+00 -2.95709620790E+01 +7.81129521641E+01 -3.24257159158E+01 +1.32583029726E+01
5.09997500000E+06 -2.00000000000E+02 +0.00000000000E+00 -2.00000000000E+02 +0.00000000000E+00 -2.61245841081E+01 +5.04604227557E+01 -3.30096406449E+01 -3.70858141290E+00
6.09997000000E+06 -2.00000000000E+02 +0.00000000000E+00 -2.00000000000E+02 +0.00000000000E+00 -2.39972306201E+01 +2.37360358053E+01 -3.46644968243E+01 -1.51689364421E+01
7.09996500000E+06 -2.00000000000E+02 +0.00000000000E+00 -2.00000000000E+02 +0.00000000000E+00 -2.27476439646E+01 -5.65290102982E-01 -3.69026600289E+01 -1.78577532261E+01
8.09996000000E+06 -2.00000000000E+02 +0.00000000000E+00 -2.00000000000E+02 +0.00000000000E+00 -2.19927915651E+01 -2.21911462649E+01 -3.87924299014E+01 -1.05041270882E+01
9.09995500000E+06 -2.00000000000E+02 +0.00000000000E+00 -2.00000000000E+02 +0.00000000000E+00 -2.15141792456E+01 -4.17120692696E+01 -3.93691651897E+01 +2.46954255947E+00
1.00999500000E+07 -2.00000000000E+02 +0.00000000000E+00 -2.00000000000E+02 +0.00000000000E+00 -2.11748454476E+01 -5.96627768671E+01 -3.83823481443E+01 +1.17303686167E+01
1.10999450000E+07 -2.00000000000E+02 +0.00000000000E+00 -2.00000000000E+02 +0.00000000000E+00 -2.09200742560E+01 -7.65091580053E+01 -3.72452732503E+01 +1.49151919331E+01
1.20999400000E+07 -2.00000000000E+02 +0.00000000000E+00 -2.00000000000E+02 +0.00000000000E+00 -2.07237171513E+01 -9.25380730991E+01 -3.62617684665E+01 +1.44270411073E+01
1.30999350000E+07 -2.00000000000E+02 +0.00000000000E+00 -2.00000000000E+02 +0.00000000000E+00 -2.05771590526E+01 -1.08023812493E+02 -3.55846575503E+01 +1.21008800099E+01
1.40999300000E+07 -2.00000000000E+02 +0.00000000000E+00 -2.00000000000E+02 +0.00000000000E+00 -2.04576384559E+01 -1.23009399616E+02 -3.51400420329E+01 +9.29254196713E+00
1.50999250000E+07 -2.00000000000E+02 +0.00000000000E+00 -2.00000000000E+02 +0.00000000000E+00 -2.03892272511E+01 -1.37640574520E+02 -3.48829108668E+01 +6.42375385764E+00
1.60999200000E+07 -2.00000000000E+02 +0.00000000000E+00 -2.00000000000E+02 +0.00000000000E+00 -2.03349242443E+01 -1.52011308545E+02 -3.47500399290E+01 +4.14174230559E+00
1.70999150000E+07 -2.00000000000E+02 +0.00000000000E+00 -2.00000000000E+02 +0.00000000000E+00 -2.03189258879E+01 -1.66026871648E+02 -3.46746396654E+01 +2.26823168989E+00
1.80999100000E+07 -2.00000000000E+02 +0.00000000000E+00 -2.00000000000E+02 +0.00000000000E+00 -2.03253483399E+01 -1.79758569828E+02 -3.46250806374E+01 +6.28766354977E-01
1.90999050000E+07 -2.00000000000E+02 +0.00000000000E+00 -2.00000000000E+02 +0.00000000000E+00 -2.03512698180E+01 +1.66770755172E+02 -3.45181946009E+01 -8.17022236068E-01
2.00999000000E+07 -2.00000000000E+02 +0.00000000000E+00 -2.00000000000E+02 +0.00000000000E+00 -2.03988477130E+01 +1.53569174410E+02 -3.44097572656E+01 -2.25621731523E+00
2.10998950000E+07 -2.00000000000E+02 +0.00000000000E+00 -2.00000000000E+02 +0.00000000000E+00 -2.04438070608E+01 +1.40617116845E+02 -3.42869758686E+01 -3.73523757438E+00
2.20998900000E+07 -2.00000000000E+02 +0.00000000000E+00 -2.00000000000E+02 +0.00000000000E+00 -2.04929235196E+01 +1.27925817808E+02 -3.41536219905E+01 -5.68334250866E+00
2.30998850000E+07 -2.00000000000E+02 +0.00000000000E+00 -2.00000000000E+02 +0.00000000000E+00 -2.05409838467E+01 +1.15385613765E+02 -3.40428786482E+01 -7.90661511558E+00
2.40998800000E+07 -2.00000000000E+02 +0.00000000000E+00 -2.00000000000E+02 +0.00000000000E+00 -2.05868521118E+01 +1.03037460543E+02 -3.39698321063E+01 -1.03286911375E+01
2.50998750000E+07 -2.00000000000E+02 +0.00000000000E+00 -2.00000000000E+02 +0.00000000000E+00 -2.06175779827E+01 +9.08244604885E+01 -3.39495188431E+01 -1.30215894958E+01
2.60998700000E+07 -2.00000000000E+02 +0.00000000000E+00 -2.00000000000E+02 +0.00000000000E+00 -2.06412010775E+01 +7.86637055058E+01 -3.39764292860E+01 -1.57572620801E+01
2.70998650000E+07 -2.00000000000E+02 +0.00000000000E+00 -2.00000000000E+02 +0.00000000000E+00 -2.06510228951E+01 +6.66177118031E+01 -3.40598429367E+01 -1.85554894599E+01
2.80998600000E+07 -2.00000000000E+02 +0.00000000000E+00 -2.00000000000E+02 +0.00000000000E+00 -2.06576860919E+01 +5.45517439894E+01 -3.42095120667E+01 -2.13377048109E+01
2.90998550000E+07 -2.00000000000E+02 +0.00000000000E+00 -2.00000000000E+02 +0.00000000000E+00 -2.06545394319E+01 +4.25192192286E+01 -3.43986712187E+01 -2.38495292959E+01
3.00998500000E+07 -2.00000000000E+02 +0.00000000000E+00 -2.00000000000E+02 +0.00000000000E+00 -2.06522965633E+01 +3.04828193819E+01 -3.46286963362E+01 -2.62809317737E+01
3.10998450000E+07 -2.00000000000E+02 +0.00000000000E+00 -2.00000000000E+02 +0.00000000000E+00 -2.06499289647E+01 +1.83978671435E+01 -3.48826829766E+01 -2.84296306220E+01
3.20998400000E+07 -2.00000000000E+02 +0.00000000000E+00 -2.00000000000E+02 +0.00000000000E+00 -2.06481292894E+01 +6.28006665389E+00 -3.51793947670E+01 -3.04626121460E+01
3.30998350000E+07 -2.00000000000E+02 +0.00000000000E+00 -2.00000000000E+02 +0.00000000000E+00 -2.06526273520E+01 -5.85263674399E+00 -3.54995022837E+01 -3.23638569073E+01
3.40998300000E+07 -2.00000000000E+02 +0.00000000000E+00 -2.00000000000E+02 +0.00000000000E+00 -2.06706385136E+01 -1.79834156501E+01 -3.58105122654E+01 -3.42251915369E+01
3.50998250000E+07 -2.00000000000E+02 +0.00000000000E+00 -2.00000000000E+02 +0.00000000000E+00 -2.07003949297E+01 -3.00826088862E+01 -3.61565926690E+01 -3.61335473465E+01
3.60998200000E+07 -2.00000000000E+02 +0.00000000000E+00 -2.00000000000E+02 +0.00000000000E+00 -2.07457547404E+01 -4.21668071924E+01 -3.65181695958E+01 -3.79786016134E+01
3.70998150000E+07 -2.00000000000E+02 +0.00000000000E+00 -2.00000000000E+02 +0.00000000000E+00 -2.08006882751E+01 -5.41364421868E+01 -3.69726717699E+01 -3.99033223465E+01
3.80998100000E+07 -2.00000000000E+02 +0.00000000000E+00 -2.00000000000E+02 +0.00000000000E+00 -2.08702088458E+01 -6.60943740660E+01 -3.75051913613E+01 -4.16379688150E+01
3.90998050000E+07 -2.00000000000E+02 +0.00000000000E+00 -2.00000000000E+02 +0.00000000000E+00 -2.09482709816E+01 -7.78942355591E+01 -3.81424749361E+01 -4.30949867292E+01
4.00998000000E+07 -2.00000000000E+02 +0.00000000000E+00 -2.00000000000E+02 +0.00000000000E+00 -2.10280669927E+01 -8.95970925400E+01 -3.88775720959E+01 -4.42430403453E+01
4.10997950000E+07 -2.00000000000E+02 +0.00000000000E+00 -2.00000000000E+02 +0.00000000000E+00 -2.11122714942E+01 -1.01151138987E+02 -3.97523854726E+01 -4.46660972290E+01
4.20997900000E+07 -2.00000000000E+02 +0.00000000000E+00 -2.00000000000E+02 +0.00000000000E+00 -2.11882993610E+01 -1.12579260887E+02 -4.07868518799E+01 -4.38142827961E+01
4.30997850000E+07 -2.00000000000E+02 +0.00000000000E+00 -2.00000000000E+02 +0.00000000000E+00 -2.12616182810E+01 -1.23910644778E+02 -4.19308772397E+01 -4.03975349905E+01
4.40997800000E+07 -2.00000000000E+02 +0.00000000000E+00 -2.00000000000E+02 +0.00000000000E+00 -2.13237140702E+01 -1.35110872389E+02 -4.29878910038E+01 -3.44766299711E+01
4.50997750000E+07 -2.00000000000E+02 +0.00000000000E+00 -2.00000000000E+02 +0.00000000000E+00 -2.13650568245E+01 -1.46235200251E+02 -4.37485948346E+01 -2.56926564102E+01
4.60997700000E+07 -2.00000000000E+02 +0.00000000000E+00 -2.00000000000E+02 +0.00000000000E+00 -2.13950059574E+01 -1.57265379166E+02 -4.39457607451E+01 -1.49016088568E+01
4.70997650000E+07 -2.00000000000E+02 +0.00000000000E+00 -2.00000000000E+02 +0.00000000000E+00 -2.14071120555E+01 -1.68302930661E+02 -4.34660829315E+01 -4.63105324371E+00
4.80997600000E+07 -2.00000000000E+02 +0.00000000000E+00 -2.00000000000E+02 +0.00000000000E+00 -2.13928154305E+01 -1.79319242161E+02 -4.25107739289E+01 +2.78222330949E+00
4.90997550000E+07 -2.00000000000E+02 +0.00000000000E+00 -2.00000000000E+02 +0.00000000000E+00 -2.13638197216E+01 +1.69695029742E+02 -4.14171497590E+01 +7.22884683969E+00
5.00997500000E+07 -2.00000000000E+02 +0.00000000000E+00 -2.00000000000E+02 +0.00000000000E+00 -2.13187966726E+01 +1.58630271940E+02 -4.03808057319E+01 +8.79573392964E+00
5.10997450000E+07 -2.00000000000E+02 +0.00000000000E+00 -2.00000000000E+02 +0.00000000000E+00 -2.12563097180E+01 +1.47499137193E+02 -3.94620143972E+01 +8.72973470758E+00
5.20997400000E+07 -2.00000000000E+02 +0.00000000000E+00 -2.00000000000E+02 +0.00000000000E+00 -2.11813677332E+01 +1.36265059919E+02 -3.86679871646E+01 +7.41569714702E+00
5.30997350000E+07 -2.00000000000E+02 +0.00000000000E+00 -2.00000000000E+02 +0.00000000000E+00 -2.10964799137E+01 +1.24934406435E+02 -3.80288289071E+01 +5.36193073249E+00
5.40997300000E+07 -2.00000000000E+02 +0.00000000000E+00 -2.00000000000E+02 +0.00000000000E+00 -2.10044826341E+01 +1.13439167320E+02 -3.75610996102E+01 +3.05631035434E+00
5.50997250000E+07 -2.00000000000E+02 +0.00000000000E+00 -2.00000000000E+02 +0.00000000000E+00 -2.09139949454E+01 +1.01827319912E+02 -3.72191934150E+01 +6.71873506446E-01
5.60997200000E+07 -2.00000000000E+02 +0.00000000000E+00 -2.00000000000E+02 +0.00000000000E+00 -2.08300903046E+01 +9.01283825263E+01 -3.69586591859E+01 -1.75742656458E+00
5.70997150000E+07 -2.00000000000E+02 +0.00000000000E+00 -2.00000000000E+02 +0.00000000000E+00 -2.07535623546E+01 +7.82733719608E+01 -3.67799437996E+01 -4.05713913876E+00
5.80997100000E+07 -2.00000000000E+02 +0.00000000000E+00 -2.00000000000E+02 +0.00000000000E+00 -2.06952176267E+01 +6.63319818956E+01 -3.66656620168E+01 -6.07139937065E+00
5.90997050000E+07 -2.00000000000E+02 +0.00000000000E+00 -2.00000000000E+02 +0.00000000000E+00 -2.06523413571E+01 +5.43392454378E+01 -3.65497907202E+01 -7.56149183276E+00
6.00997000000E+07 -2.00000000000E+02 +0.00000000000E+00 -2.00000000000E+02 +0.00000000000E+00 -2.06282821904E+01 +4.23103892392E+01 -3.64160141387E+01 -8.84326441204E+00
6.10996950000E+07 -2.00000000000E+02 +0.00000000000E+00 -2.00000000000E+02 +0.00000000000E+00 -2.06280591389E+01 +3.02711195909E+01 -3.62750691062E+01 -1.00442419589E+01
6.20996900000E+07 -2.00000000000E+02 +0.00000000000E+00 -2.00000000000E+02 +0.00000000000E+00 -2.06477157663E+01 +1.82720350126E+01 -3.60928748838E+01 -1.13813602849E+01
6.30996850000E+07 -2.00000000000E+02 +0.00000000000E+00 -2.00000000000E+02 +0.00000000000E+00 -2.06791361319E+01 +6.33619941790E+00 -3.58885834696E+01 -1.28533875800E+01
6.40996800000E+07 -2.00000000000E+02 +0.00000000000E+00 -2.00000000000E+02 +0.00000000000E+00 -2.07234879070E+01 -5.47866690072E+00 -3.56496904817E+01 -1.47804595961E+01
6.50996750000E+07 -2.00000000000E+02 +0.00000000000E+00 -2.00000000000E+02 +0.00000000000E+00 -2.07770322031E+01 -1.71989895331E+01 -3.54525889376E+01 -1.69405234146E+01
6.60996700000E+07 -2.00000000000E+02 +0.00000000000E+00 -2.00000000000E+02 +0.00000000000E+00 -2.08389119185E+01 -2.88230919525E+01 -3.52598118318E+01 -1.98338866512E+01
6.70996650000E+07 -2.00000000000E+02 +0.00000000000E+00 -2.00000000000E+02 +0.00000000000E+00 -2.08923760639E+01 -4.02904926974E+01 -3.51427447974E+01 -2.27742832690E+01
6.80996600000E+07 -2.00000000000E+02 +0.00000000000E+00 -2.00000000000E+02 +0.00000000000E+00 -2.09409883044E+01 -5.17006662980E+01 -3.50871768178E+01 -2.59789203136E+01
6.90996550000E+07 -2.00000000000E+02 +0.00000000000E+00 -2.00000000000E+02 +0.00000000000E+00 -2.09851285651E+01 -6.30202531404E+01 -3.50974218443E+01 -2.92581455561E+01
7.00996500000E+07 -2.00000000000E+02 +0.00000000000E+00 -2.00000000000E+02 +0.00000000000E+00 -2.10146740881E+01 -7.42192757473E+01 -3.51741966880E+01 -3.26269085594E+01
7.10996450000E+07 -2.00000000000E+02 +0.00000000000E+00 -2.00000000000E+02 +0.00000000000E+00 -2.10334686786E+01 -8.54346609366E+01 -3.53227412367E+01 -3.57687749393E+01
7.20996400000E+07 -2.00000000000E+02 +0.00000000000E+00 -2.00000000000E+02 +0.00000000000E+00 -2.10393265257E+01 -9.65776596091E+01 -3.55626526693E+01 -3.86857532065E+01
7.30996350000E+07 -2.00000000000E+02 +0.00000000000E+00 -2.00000000000E+02 +0.00000000000E+00 -2.10288492716E+01 -1.07745240581E+02 -3.58223894279E+01 -4.14428608834E+01
7.40996300000E+07 -2.00000000000E+02 +0.00000000000E+00 -2.00000000000E+02 +0.00000000000E+00 -2.10091019278E+01 -1.18922360022E+02 -3.61476594609E+01 -4.35085587474E+01
7.50996250000E+07 -2.00000000000E+02 +0.00000000000E+00 -2.00000000000E+02 +0.00000000000E+00 -2.09733550799E+01 -1.30137527307E+02 -3.64813029033E+01 -4.52353867002E+01
7.60996200000E+07 -2.00000000000E+02 +0.00000000000E+00 -2.00000000000E+02 +0.00000000000E+00 -2.09309882398E+01 -1.41426031535E+02 -3.67961515123E+01 -4.61389216524E+01
7.70996150000E+07 -2.00000000000E+02 +0.00000000000E+00 -2.00000000000E+02 +0.00000000000E+00 -2.08818132060E+01 -1.52763131442E+02 -3.70654735116E+01 -4.67787879365E+01
7.80996100000E+07 -2.00000000000E+02 +0.00000000000E+00 -2.00000000000E+02 +0.00000000000E+00 -2.08254619471E+01 -1.64168273267E+02 -3.72820780946E+01 -4.71544188146E+01
7.90996050000E+07 -2.00000000000E+02 +0.00000000000E+00 -2.00000000000E+02 +0.00000000000E+00 -2.07672719406E+01 -1.75639182032E+02 -3.73683116510E+01 -4.73013206148E+01
8.00996000000E+07 -2.00000000000E+02 +0.00000000000E+00 -2.00000000000E+02 +0.00000000000E+00 -2.07095123329E+01 +1.72800969268E+02 -3.74134511644E+01 -4.75294124950E+01
8.10995950000E+07 -2.00000000000E+02 +0.00000000000E+00 -2.00000000000E+02 +0.00000000000E+00 -2.06553276589E+01 +1.61137057768E+02 -3.73424811295E+01 -4.80355500771E+01
8.20995900000E+07 -2.00000000000E+02 +0.00000000000E+00 -2.00000000000E+02 +0.00000000000E+00 -2.06080106171E+01 +1.49446393142E+02 -3.72502672770E+01 -4.91119775882E+01
8.30995850000E+07 -2.00000000000E+02 +0.00000000000E+00 -2.00000000000E+02 +0.00000000000E+00 -2.05701550439E+01 +1.37717450585E+02 -3.71297985002E+01 -5.08122551778E+01
8.40995800000E+07 -2.00000000000E+02 +0.00000000000E+00 -2.00000000000E+02 +0.00000000000E+00 -2.05385972244E+01 +1.25944239729E+02 -3.70145351031E+01 -5.31885775867E+01
8.50995750000E+07 -2.00000000000E+02 +0.00000000000E+00 -2.00000000000E+02 +0.00000000000E+00 -2.05196086766E+01 +1.14180740783E+02 -3.69249412261E+01 -5.58179131911E+01
8.60995700000E+07 -2.00000000000E+02 +0.00000000000E+00 -2.00000000000E+02 +0.00000000000E+00 -2.05047473452E+01 +1.02404290512E+02 -3.68781144414E+01 -5.87359084734E+01
8.70995650000E+07 -2.00000000000E+02 +0.00000000000E+00 -2.00000000000E+02 +0.00000000000E+00 -2.04974095443E+01 +9.06085765790E+01 -3.69031435879E+01 -6.19978505315E+01
8.80995600000E+07 -2.00000000000E+02 +0.00000000000E+00 -2.00000000000E+02 +0.00000000000E+00 -2.05016593471E+01 +7.88688969460E+01 -3.69711802838E+01 -6.52415886295E+01
8.90995550000E+07 -2.00000000000E+02 +0.00000000000E+00 -2.00000000000E+02 +0.00000000000E+00 -2.05018106320E+01 +6.71524853054E+01 -3.70682541594E+01 -6.86630642897E+01
9.00995500000E+07 -2.00000000000E+02 +0.00000000000E+00 -2.00000000000E+02 +0.00000000000E+00 -2.05080335000E+01 +5.54779151778E+01 -3.71944295839E+01 -7.19650432977E+01
9.10995450000E+07 -2.00000000000E+02 +0.00000000000E+00 -2.00000000000E+02 +0.00000000000E+00 -2.05147632962E+01 +4.37992959329E+01 -3.73608219224E+01 -7.51320422825E+01
9.20995400000E+07 -2.00000000000E+02 +0.00000000000E+00 -2.00000000000E+02 +0.00000000000E+00 -2.05208556291E+01 +3.21698254232E+01 -3.74874148337E+01 -7.84153864630E+01
9.30995350000E+07 -2.00000000000E+02 +0.00000000000E+00 -2.00000000000E+02 +0.00000000000E+00 -2.05247124420E+01 +2.05279004671E+01 -3.76573799808E+01 -8.17223303414E+01
9.40995300000E+07 -2.00000000000E+02 +0.00000000000E+00 -2.00000000000E+02 +0.00000000000E+00 -2.05234930273E+01 +8.90710853931E+00 -3.77687512656E+01 -8.50200925078E+01
9.50995250000E+07 -2.00000000000E+02 +0.00000000000E+00 -2.00000000000E+02 +0.00000000000E+00 -2.05275207700E+01 -2.72732731823E+00 -3.78622135954E+01 -8.86026037742E+01
9.60995200000E+07 -2.00000000000E+02 +0.00000000000E+00 -2.00000000000E+02 +0.00000000000E+00 -2.05278814143E+01 -1.43856898026E+01 -3.79800949156E+01 -9.25721763065E+01
9.70995150000E+07 -2.00000000000E+02 +0.00000000000E+00 -2.00000000000E+02 +0.00000000000E+00 -2.05267340080E+01 -2.60571930514E+01 -3.80476927954E+01 -9.69033501376E+01
9.80995100000E+07 -2.00000000000E+02 +0.00000000000E+00 -2.00000000000E+02 +0.00000000000E+00 -2.05283312852E+01 -3.77805881221E+01 -3.81597339320E+01 -1.01776647668E+02
9.90995050000E+07 -2.00000000000E+02 +0.00000000000E+00 -2.00000000000E+02 +0.00000000000E+00 -2.05300007273E+01 -4.95321162850E+01 -3.82881011558E+01 -1.07101099388E+02
1.00099500000E+08 -2.00000000000E+02 +0.00000000000E+00 -2.00000000000E+02 +0.00000000000E+00 -2.05382720333E+01 -6.13129028275E+01 -3.84364879713E+01 -1.12866771126E+02
1.01099495000E+08 -2.00000000000E+02 +0.00000000000E+00 -2.00000000000E+02 +0.00000000000E+00 -2.05538480569E+01 -7.31018451802E+01 -3.86884324797E+01 -1.19070277269E+02
1.02099490000E+08 -2.00000000000E+02 +0.00000000000E+00 -2.00000000000E+02 +0.00000000000E+00 -2.05789409400E+01 -8.49150504466E+01 -3.89894331088E+01 -1.25922738741E+02
1.03099485000E+08 -2.00000000000E+02 +0.00000000000E+00 -2.00000000000E+02 +0.00000000000E+00 -2.06123257138E+01 -9.67198374726E+01 -3.93431443049E+01 -1.32650242863E+02
1.04099480000E+08 -2.00000000000E+02 +0.00000000000E+00 -2.00000000000E+02 +0.00000000000E+00 -2.06577818653E+01 -1.08507493828E+02 -3.97726953144E+01 -1.39868618939E+02
1.05099475000E+08 -2.00000000000E+02 +0.00000000000E+00 -2.00000000000E+02 +0.00000000000E+00 -2.07116540550E+01 -1.20280794231E+02 -4.03220075746E+01 -1.46910791273E+02
1.06099470000E+08 -2.00000000000E+02 +0.00000000000E+00 -2.00000000000E+02 +0.00000000000E+00 -2.07741446804E+01 -1.31970726846E+02 -4.08672092656E+01 -1.54025610483E+02
1.07099465000E+08 -2.00000000000E+02 +0.00000000000E+00 -2.00000000000E+02 +0.00000000000E+00 -2.08429906273E+01 -1.43612635707E+02 -4.14773919370E+01 -1.60654638626E+02
1.08099460000E+08 -2.00000000000E+02 +0.00000000000E+00 -2.00000000000E+02 +0.00000000000E+00 -2.09191613449E+01 -1.55175093741E+02 -4.21368202041E+01 -1.67179947141E+02
1.09099455000E+08 -2.00000000000E+02 +0.00000000000E+00 -2.00000000000E+02 +0.00000000000E+00 -2.09962035056E+01 -1.66658531700E+02 -4.28290283562E+01 -1.73060011998E+02
1.10099450000E+08 -2.00000000000E+02 +0.00000000000E+00 -2.00000000000E+02 +0.00000000000E+00 -2.10734168397E+01 -1.78036986376E+02 -4.34637300158E+01 -1.77847029580E+02
1.11099445000E+08 -2.00000000000E+02 +0.00000000000E+00 -2.00000000000E+02 +0.00000000000E+00 -2.11491104170E+01 +1.70644079145E+02 -4.40180691539E+01 +1.78009271419E+02
1.12099440000E+08 -2.00000000000E+02 +0.00000000000E+00 -2.00000000000E+02 +0.00000000000E+00 -2.12163972697E+01 +1.59385145107E+02 -4.45367877254E+01 +1.75011948263E+02
1.13099435000E+08 -2.00000000000E+02 +0.00000000000E+00 -2.00000000000E+02 +0.00000000000E+00 -2.12772422231E+01 +1.48203613210E+02 -4.47813481885E+01 +1.72402320048E+02
1.14099430000E+08 -2.00000000000E+02 +0.00000000000E+00 -2.00000000000E+02 +0.00000000000E+00 -2.13317234838E+01 +1.37108028485E+02 -4.48603018328E+01 +1.70514166369E+02
