# Hz S DB R 50
! CMT, C4420, 18068703, 18.2.2/3
! Date: 4/8/2026 3:11:58 PM
! Data: Format (Calibration Info)
! Freq                        S33: dB/Ang                           S43: dB/Ang                           S34: dB/Ang                           S44: dB/Ang              
1.00000000000E+05 -2.00000000000E+02 +0.00000000000E+00 -2.00000000000E+02 +0.00000000000E+00 -8.00480583750E+01 -1.12447130970E+02 +7.65110749321E-02 -1.52198372754E+00
1.09999500000E+06 -2.00000000000E+02 +0.00000000000E+00 -2.00000000000E+02 +0.00000000000E+00 -6.55477886095E+01 -1.74040389024E+01 +3.27081302293E-02 -1.31923885271E+01
2.09999000000E+06 -2.00000000000E+02 +0.00000000000E+00 -2.00000000000E+02 +0.00000000000E+00 -6.50650806627E+01 -7.99207089802E+01 +1.46399958053E-02 -2.57234637308E+01
3.09998500000E+06 -2.00000000000E+02 +0.00000000000E+00 -2.00000000000E+02 +0.00000000000E+00 -6.89886368617E+01 -1.24671054890E+02 -1.12266096287E-01 -3.92564020178E+01
4.09998000000E+06 -2.00000000000E+02 +0.00000000000E+00 -2.00000000000E+02 +0.00000000000E+00 -7.10066097064E+01 -1.53671259368E+02 -4.98579563443E-01 -5.37830219854E+01
5.09997500000E+06 -2.00000000000E+02 +0.00000000000E+00 -2.00000000000E+02 +0.00000000000E+00 -7.49273168028E+01 +1.49178603677E+02 -1.22936154344E+00 -6.83540698703E+01
6.09997000000E+06 -2.00000000000E+02 +0.00000000000E+00 -2.00000000000E+02 +0.00000000000E+00 -8.71166663220E+01 +1.31115592782E+02 -2.31027274106E+00 -8.20876091708E+01
7.09996500000E+06 -2.00000000000E+02 +0.00000000000E+00 -2.00000000000E+02 +0.00000000000E+00 -8.37733503735E+01 +9.00631179542E+01 -3.66309515927E+00 -9.41026661117E+01
8.09996000000E+06 -2.00000000000E+02 +0.00000000000E+00 -2.00000000000E+02 +0.00000000000E+00 -9.10127988580E+01 +8.87772235943E+01 -5.16567519159E+00 -1.04148270928E+02
9.09995500000E+06 -2.00000000000E+02 +0.00000000000E+00 -2.00000000000E+02 +0.00000000000E+00 -8.54190542199E+01 -6.26001844497E+01 -6.70926491921E+00 -1.12272694931E+02
1.00999500000E+07 -2.00000000000E+02 +0.00000000000E+00 -2.00000000000E+02 +0.00000000000E+00 -8.76217135613E+01 +9.10430041479E+01 -8.24409050301E+00 -1.18708179830E+02
1.10999450000E+07 -2.00000000000E+02 +0.00000000000E+00 -2.00000000000E+02 +0.00000000000E+00 -9.69906125665E+01 +9.00893973196E+01 -9.72016265906E+00 -1.23842940591E+02
1.20999400000E+07 -2.00000000000E+02 +0.00000000000E+00 -2.00000000000E+02 +0.00000000000E+00 -9.07189733536E+01 +6.25408399918E+01 -1.11205212720E+01 -1.27884064609E+02
1.30999350000E+07 -2.00000000000E+02 +0.00000000000E+00 -2.00000000000E+02 +0.00000000000E+00 -9.26573129212E+01 -7.66509670485E+00 -1.24388266851E+01 -1.31057832486E+02
1.40999300000E+07 -2.00000000000E+02 +0.00000000000E+00 -2.00000000000E+02 +0.00000000000E+00 -9.37479072735E+01 -3.58027044802E+01 -1.36746831697E+01 -1.33554424243E+02
1.50999250000E+07 -2.00000000000E+02 +0.00000000000E+00 -2.00000000000E+02 +0.00000000000E+00 -8.68093278843E+01 -2.07978520677E+01 -1.48265258850E+01 -1.35464856896E+02
1.60999200000E+07 -2.00000000000E+02 +0.00000000000E+00 -2.00000000000E+02 +0.00000000000E+00 -9.12188784332E+01 -2.41828350690E+01 -1.58996426580E+01 -1.36956724339E+02
1.70999150000E+07 -2.00000000000E+02 +0.00000000000E+00 -2.00000000000E+02 +0.00000000000E+00 -8.31348363479E+01 -3.54924119011E+01 -1.68957493867E+01 -1.38088655067E+02
1.80999100000E+07 -2.00000000000E+02 +0.00000000000E+00 -2.00000000000E+02 +0.00000000000E+00 -9.11616662545E+01 -8.30537355384E+01 -1.78164483382E+01 -1.38925076296E+02
1.90999050000E+07 -2.00000000000E+02 +0.00000000000E+00 -2.00000000000E+02 +0.00000000000E+00 -8.45427300932E+01 -9.54339509221E+01 -1.86700687231E+01 -1.39536909346E+02
2.00999000000E+07 -2.00000000000E+02 +0.00000000000E+00 -2.00000000000E+02 +0.00000000000E+00 -9.15487877223E+01 -6.43242012752E+01 -1.94527838373E+01 -1.40010850569E+02
2.10998950000E+07 -2.00000000000E+02 +0.00000000000E+00 -2.00000000000E+02 +0.00000000000E+00 -9.61279949801E+01 -7.78912666489E+01 -2.01719211032E+01 -1.40366828068E+02
2.20998900000E+07 -2.00000000000E+02 +0.00000000000E+00 -2.00000000000E+02 +0.00000000000E+00 -8.62449731289E+01 -1.35825322595E+02 -2.08321328790E+01 -1.40695554409E+02
2.30998850000E+07 -2.00000000000E+02 +0.00000000000E+00 -2.00000000000E+02 +0.00000000000E+00 -8.83323017969E+01 -1.31958511684E+02 -2.14447583909E+01 -1.40997787646E+02
2.40998800000E+07 -2.00000000000E+02 +0.00000000000E+00 -2.00000000000E+02 +0.00000000000E+00 -9.18330578425E+01 -1.73901306284E+02 -2.20048907879E+01 -1.41307307195E+02
2.50998750000E+07 -2.00000000000E+02 +0.00000000000E+00 -2.00000000000E+02 +0.00000000000E+00 -8.42993859209E+01 -1.62171352561E+02 -2.25196037616E+01 -1.41676074696E+02
2.60998700000E+07 -2.00000000000E+02 +0.00000000000E+00 -2.00000000000E+02 +0.00000000000E+00 -8.46717529939E+01 +1.76683577845E+02 -2.29958872932E+01 -1.42128044063E+02
2.70998650000E+07 -2.00000000000E+02 +0.00000000000E+00 -2.00000000000E+02 +0.00000000000E+00 -8.34309452397E+01 -1.75080930189E+02 -2.34446722677E+01 -1.42655426336E+02
2.80998600000E+07 -2.00000000000E+02 +0.00000000000E+00 -2.00000000000E+02 +0.00000000000E+00 -8.67367125446E+01 +1.51851632474E+02 -2.38630105592E+01 -1.43248499003E+02
2.90998550000E+07 -2.00000000000E+02 +0.00000000000E+00 -2.00000000000E+02 +0.00000000000E+00 -8.59699923585E+01 +1.34930057315E+02 -2.42540952449E+01 -1.43967659912E+02
3.00998500000E+07 -2.00000000000E+02 +0.00000000000E+00 -2.00000000000E+02 +0.00000000000E+00 -8.57032326278E+01 +1.03330759551E+02 -2.46277538792E+01 -1.44773273163E+02
3.10998450000E+07 -2.00000000000E+02 +0.00000000000E+00 -2.00000000000E+02 +0.00000000000E+00 -8.32928349563E+01 +1.19473568399E+02 -2.49828844274E+01 -1.45677626019E+02
3.20998400000E+07 -2.00000000000E+02 +0.00000000000E+00 -2.00000000000E+02 +0.00000000000E+00 -8.24338331928E+01 +1.07009312927E+02 -2.53308410348E+01 -1.46719926996E+02
3.30998350000E+07 -2.00000000000E+02 +0.00000000000E+00 -2.00000000000E+02 +0.00000000000E+00 -8.62649386018E+01 +6.61123692417E+01 -2.56633208010E+01 -1.47816144652E+02
3.40998300000E+07 -2.00000000000E+02 +0.00000000000E+00 -2.00000000000E+02 +0.00000000000E+00 -8.17278622706E+01 +6.60062485667E+01 -2.59875171987E+01 -1.48999638234E+02
3.50998250000E+07 -2.00000000000E+02 +0.00000000000E+00 -2.00000000000E+02 +0.00000000000E+00 -8.50665927440E+01 +4.56297134927E+01 -2.63123969979E+01 -1.50252894118E+02
3.60998200000E+07 -2.00000000000E+02 +0.00000000000E+00 -2.00000000000E+02 +0.00000000000E+00 -8.12288808870E+01 +4.20622989117E+01 -2.66283526339E+01 -1.51544231615E+02
3.70998150000E+07 -2.00000000000E+02 +0.00000000000E+00 -2.00000000000E+02 +0.00000000000E+00 -8.34989608494E+01 +4.43356762821E+01 -2.69394474495E+01 -1.52956446066E+02
3.80998100000E+07 -2.00000000000E+02 +0.00000000000E+00 -2.00000000000E+02 +0.00000000000E+00 -8.44637756719E+01 +1.49193815552E+01 -2.72473933893E+01 -1.54387191267E+02
3.90998050000E+07 -2.00000000000E+02 +0.00000000000E+00 -2.00000000000E+02 +0.00000000000E+00 -8.41626255011E+01 +1.76053378055E+01 -2.75581708662E+01 -1.55858051646E+02
4.00998000000E+07 -2.00000000000E+02 +0.00000000000E+00 -2.00000000000E+02 +0.00000000000E+00 -8.36719015757E+01 +3.22450768598E+00 -2.78658557890E+01 -1.57338855861E+02
4.10997950000E+07 -2.00000000000E+02 +0.00000000000E+00 -2.00000000000E+02 +0.00000000000E+00 -8.25370678099E+01 +3.23574511550E+00 -2.81771269839E+01 -1.58857416904E+02
4.20997900000E+07 -2.00000000000E+02 +0.00000000000E+00 -2.00000000000E+02 +0.00000000000E+00 -8.15887878260E+01 -3.98646271624E+01 -2.84867441518E+01 -1.60369862947E+02
4.30997850000E+07 -2.00000000000E+02 +0.00000000000E+00 -2.00000000000E+02 +0.00000000000E+00 -8.41836244985E+01 -4.49358695961E+01 -2.87989663824E+01 -1.61933626934E+02
4.40997800000E+07 -2.00000000000E+02 +0.00000000000E+00 -2.00000000000E+02 +0.00000000000E+00 -8.14597151548E+01 -4.29436194563E+01 -2.91053316571E+01 -1.63543323227E+02
4.50997750000E+07 -2.00000000000E+02 +0.00000000000E+00 -2.00000000000E+02 +0.00000000000E+00 -8.08006591143E+01 -7.09736069465E+01 -2.94159251491E+01 -1.65017590477E+02
4.60997700000E+07 -2.00000000000E+02 +0.00000000000E+00 -2.00000000000E+02 +0.00000000000E+00 -7.98754171797E+01 -6.68981254583E+01 -2.97155616663E+01 -1.66468471083E+02
4.70997650000E+07 -2.00000000000E+02 +0.00000000000E+00 -2.00000000000E+02 +0.00000000000E+00 -8.19494007105E+01 -8.76437963825E+01 -3.00235909926E+01 -1.67913058603E+02
4.80997600000E+07 -2.00000000000E+02 +0.00000000000E+00 -2.00000000000E+02 +0.00000000000E+00 -8.40931548751E+01 -7.48025503632E+01 -3.03265120316E+01 -1.69412513706E+02
4.90997550000E+07 -2.00000000000E+02 +0.00000000000E+00 -2.00000000000E+02 +0.00000000000E+00 -8.30600123412E+01 -1.06424381857E+02 -3.06172332937E+01 -1.70752284144E+02
5.00997500000E+07 -2.00000000000E+02 +0.00000000000E+00 -2.00000000000E+02 +0.00000000000E+00 -8.18623055312E+01 -1.01024640525E+02 -3.09080961032E+01 -1.72121203241E+02
5.10997450000E+07 -2.00000000000E+02 +0.00000000000E+00 -2.00000000000E+02 +0.00000000000E+00 -7.97657426673E+01 -1.07970989717E+02 -3.11756834793E+01 -1.73246920454E+02
5.20997400000E+07 -2.00000000000E+02 +0.00000000000E+00 -2.00000000000E+02 +0.00000000000E+00 -7.85550370555E+01 -1.47871412804E+02 -3.14655504898E+01 -1.74516833001E+02
5.30997350000E+07 -2.00000000000E+02 +0.00000000000E+00 -2.00000000000E+02 +0.00000000000E+00 -8.01532696636E+01 -1.54942908703E+02 -3.17343611076E+01 -1.75696760918E+02
5.40997300000E+07 -2.00000000000E+02 +0.00000000000E+00 -2.00000000000E+02 +0.00000000000E+00 -8.41027062875E+01 -1.67946479274E+02 -3.19709384386E+01 -1.76848882201E+02
5.50997250000E+07 -2.00000000000E+02 +0.00000000000E+00 -2.00000000000E+02 +0.00000000000E+00 -8.02306259806E+01 +1.77584845980E+02 -3.21989715510E+01 -1.77849144001E+02
5.60997200000E+07 -2.00000000000E+02 +0.00000000000E+00 -2.00000000000E+02 +0.00000000000E+00 -7.90075504760E+01 +1.57551000791E+02 -3.24026145147E+01 -1.78838092386E+02
5.70997150000E+07 -2.00000000000E+02 +0.00000000000E+00 -2.00000000000E+02 +0.00000000000E+00 -8.08941650813E+01 +1.61440686687E+02 -3.26045758502E+01 -1.79724970635E+02
5.80997100000E+07 -2.00000000000E+02 +0.00000000000E+00 -2.00000000000E+02 +0.00000000000E+00 -7.89717568884E+01 +1.50051403907E+02 -3.27809185724E+01 +1.79368845812E+02
5.90997050000E+07 -2.00000000000E+02 +0.00000000000E+00 -2.00000000000E+02 +0.00000000000E+00 -7.81573704929E+01 +1.17063866060E+02 -3.29413785485E+01 +1.78548348071E+02
6.00997000000E+07 -2.00000000000E+02 +0.00000000000E+00 -2.00000000000E+02 +0.00000000000E+00 -7.87943413480E+01 +1.22052608407E+02 -3.30579927656E+01 +1.77642721331E+02
6.10996950000E+07 -2.00000000000E+02 +0.00000000000E+00 -2.00000000000E+02 +0.00000000000E+00 -7.73368077481E+01 +1.16173945276E+02 -3.31635538747E+01 +1.76774610916E+02
6.20996900000E+07 -2.00000000000E+02 +0.00000000000E+00 -2.00000000000E+02 +0.00000000000E+00 -7.90337257399E+01 +9.85861879601E+01 -3.32306362950E+01 +1.75970015794E+02
6.30996850000E+07 -2.00000000000E+02 +0.00000000000E+00 -2.00000000000E+02 +0.00000000000E+00 -7.88805694704E+01 +9.11131931121E+01 -3.33013069879E+01 +1.75143511143E+02
6.40996800000E+07 -2.00000000000E+02 +0.00000000000E+00 -2.00000000000E+02 +0.00000000000E+00 -7.85884053362E+01 +6.11905707050E+01 -3.33227483295E+01 +1.74300696172E+02
6.50996750000E+07 -2.00000000000E+02 +0.00000000000E+00 -2.00000000000E+02 +0.00000000000E+00 -7.88060827266E+01 +6.20736162725E+01 -3.33197514014E+01 +1.73351817124E+02
6.60996700000E+07 -2.00000000000E+02 +0.00000000000E+00 -2.00000000000E+02 +0.00000000000E+00 -7.89155291032E+01 +4.38343823948E+01 -3.33114026478E+01 +1.72342558065E+02
6.70996650000E+07 -2.00000000000E+02 +0.00000000000E+00 -2.00000000000E+02 +0.00000000000E+00 -7.85139004749E+01 +2.54375872778E+01 -3.32600613398E+01 +1.71353067270E+02
6.80996600000E+07 -2.00000000000E+02 +0.00000000000E+00 -2.00000000000E+02 +0.00000000000E+00 -7.78858147139E+01 +1.31974608241E+01 -3.31834416819E+01 +1.70176192344E+02
6.90996550000E+07 -2.00000000000E+02 +0.00000000000E+00 -2.00000000000E+02 +0.00000000000E+00 -7.81709347339E+01 +2.94218757139E+00 -3.31126193190E+01 +1.68989338571E+02
7.00996500000E+07 -2.00000000000E+02 +0.00000000000E+00 -2.00000000000E+02 +0.00000000000E+00 -7.84321242835E+01 +6.01193406881E+00 -3.30138993685E+01 +1.67620688260E+02
7.10996450000E+07 -2.00000000000E+02 +0.00000000000E+00 -2.00000000000E+02 +0.00000000000E+00 -7.80958988002E+01 -1.21397831828E+01 -3.28781092304E+01 +1.66215457932E+02
7.20996400000E+07 -2.00000000000E+02 +0.00000000000E+00 -2.00000000000E+02 +0.00000000000E+00 -7.82554551180E+01 -3.29486980800E+01 -3.27541503047E+01 +1.64633915436E+02
7.30996350000E+07 -2.00000000000E+02 +0.00000000000E+00 -2.00000000000E+02 +0.00000000000E+00 -7.83162495699E+01 -3.80986274854E+01 -3.25910449864E+01 +1.63081610510E+02
7.40996300000E+07 -2.00000000000E+02 +0.00000000000E+00 -2.00000000000E+02 +0.00000000000E+00 -7.77804660835E+01 -4.35105394965E+01 -3.24488038369E+01 +1.61376433313E+02
7.50996250000E+07 -2.00000000000E+02 +0.00000000000E+00 -2.00000000000E+02 +0.00000000000E+00 -7.73368835350E+01 -5.94779511091E+01 -3.22864223242E+01 +1.59593143906E+02
7.60996200000E+07 -2.00000000000E+02 +0.00000000000E+00 -2.00000000000E+02 +0.00000000000E+00 -7.73721116233E+01 -6.78698723832E+01 -3.21270542148E+01 +1.57644970051E+02
7.70996150000E+07 -2.00000000000E+02 +0.00000000000E+00 -2.00000000000E+02 +0.00000000000E+00 -7.61645844759E+01 -8.59955469265E+01 -3.19477597192E+01 +1.55830490689E+02
7.80996100000E+07 -2.00000000000E+02 +0.00000000000E+00 -2.00000000000E+02 +0.00000000000E+00 -7.59993884022E+01 -9.61839929306E+01 -3.17684106273E+01 +1.53751448648E+02
7.90996050000E+07 -2.00000000000E+02 +0.00000000000E+00 -2.00000000000E+02 +0.00000000000E+00 -7.65293766522E+01 -1.14257432258E+02 -3.15848775650E+01 +1.51625800460E+02
8.00996000000E+07 -2.00000000000E+02 +0.00000000000E+00 -2.00000000000E+02 +0.00000000000E+00 -7.70802805835E+01 -1.17707460750E+02 -3.14117300614E+01 +1.49483632691E+02
8.10995950000E+07 -2.00000000000E+02 +0.00000000000E+00 -2.00000000000E+02 +0.00000000000E+00 -7.57247520979E+01 -1.44971547630E+02 -3.12148524088E+01 +1.47210781152E+02
8.20995900000E+07 -2.00000000000E+02 +0.00000000000E+00 -2.00000000000E+02 +0.00000000000E+00 -7.57733169885E+01 -1.51676654953E+02 -3.10265895129E+01 +1.44882474315E+02
8.30995850000E+07 -2.00000000000E+02 +0.00000000000E+00 -2.00000000000E+02 +0.00000000000E+00 -7.61199169591E+01 -1.61093807658E+02 -3.08507424881E+01 +1.42555592773E+02
8.40995800000E+07 -2.00000000000E+02 +0.00000000000E+00 -2.00000000000E+02 +0.00000000000E+00 -7.62973981263E+01 +1.78316387080E+02 -3.06578492381E+01 +1.40145432891E+02
8.50995750000E+07 -2.00000000000E+02 +0.00000000000E+00 -2.00000000000E+02 +0.00000000000E+00 -7.61391397032E+01 -1.76706326208E+02 -3.04918723169E+01 +1.37773346509E+02
8.60995700000E+07 -2.00000000000E+02 +0.00000000000E+00 -2.00000000000E+02 +0.00000000000E+00 -7.57164667433E+01 +1.70142025046E+02 -3.03111341847E+01 +1.35279046551E+02
8.70995650000E+07 -2.00000000000E+02 +0.00000000000E+00 -2.00000000000E+02 +0.00000000000E+00 -7.63364754369E+01 +1.34185148010E+02 -3.01413605463E+01 +1.32784797191E+02
8.80995600000E+07 -2.00000000000E+02 +0.00000000000E+00 -2.00000000000E+02 +0.00000000000E+00 -7.46342416979E+01 +1.46908954900E+02 -2.99775141956E+01 +1.30213826682E+02
8.90995550000E+07 -2.00000000000E+02 +0.00000000000E+00 -2.00000000000E+02 +0.00000000000E+00 -7.46491801243E+01 +1.24413605471E+02 -2.98030931011E+01 +1.27669033898E+02
9.00995500000E+07 -2.00000000000E+02 +0.00000000000E+00 -2.00000000000E+02 +0.00000000000E+00 -7.44699223277E+01 +1.20766913605E+02 -2.96435101084E+01 +1.25069545252E+02
9.10995450000E+07 -2.00000000000E+02 +0.00000000000E+00 -2.00000000000E+02 +0.00000000000E+00 -7.56223448272E+01 +1.01431566061E+02 -2.94866535706E+01 +1.22454500076E+02
9.20995400000E+07 -2.00000000000E+02 +0.00000000000E+00 -2.00000000000E+02 +0.00000000000E+00 -7.56641462690E+01 +9.32958816947E+01 -2.93407524074E+01 +1.19863198535E+02
9.30995350000E+07 -2.00000000000E+02 +0.00000000000E+00 -2.00000000000E+02 +0.00000000000E+00 -7.43136534488E+01 +8.19786488626E+01 -2.91924121284E+01 +1.17265226875E+02
9.40995300000E+07 -2.00000000000E+02 +0.00000000000E+00 -2.00000000000E+02 +0.00000000000E+00 -7.49204103927E+01 +6.15347586993E+01 -2.90528546382E+01 +1.14581524250E+02
9.50995250000E+07 -2.00000000000E+02 +0.00000000000E+00 -2.00000000000E+02 +0.00000000000E+00 -7.52404725808E+01 +5.32783948053E+01 -2.89135382728E+01 +1.11979397785E+02
9.60995200000E+07 -2.00000000000E+02 +0.00000000000E+00 -2.00000000000E+02 +0.00000000000E+00 -7.41734112405E+01 +3.95922961463E+01 -2.87815525465E+01 +1.09323077185E+02
9.70995150000E+07 -2.00000000000E+02 +0.00000000000E+00 -2.00000000000E+02 +0.00000000000E+00 -7.50222946763E+01 +3.08666468982E+01 -2.86540419082E+01 +1.06641240643E+02
9.80995100000E+07 -2.00000000000E+02 +0.00000000000E+00 -2.00000000000E+02 +0.00000000000E+00 -7.38984348434E+01 +2.51030555733E+01 -2.85342519191E+01 +1.04008159354E+02
9.90995050000E+07 -2.00000000000E+02 +0.00000000000E+00 -2.00000000000E+02 +0.00000000000E+00 -7.44515801857E+01 +7.90681793119E+00 -2.84184685186E+01 +1.01298373333E+02
1.00099500000E+08 -2.00000000000E+02 +0.00000000000E+00 -2.00000000000E+02 +0.00000000000E+00 -7.50544684839E+01 +2.38241248309E+00 -2.83164386796E+01 +9.86552373973E+01
1.01099495000E+08 -2.00000000000E+02 +0.00000000000E+00 -2.00000000000E+02 +0.00000000000E+00 -7.38756550651E+01 -2.28743458869E+01 -2.82031008679E+01 +9.59598805901E+01
1.02099490000E+08 -2.00000000000E+02 +0.00000000000E+00 -2.00000000000E+02 +0.00000000000E+00 -7.36419171264E+01 -2.57398854613E+01 -2.81086314963E+01 +9.33675535830E+01
1.03099485000E+08 -2.00000000000E+02 +0.00000000000E+00 -2.00000000000E+02 +0.00000000000E+00 -7.39570296371E+01 -4.43859665672E+01 -2.80107272204E+01 +9.06693785141E+01
1.04099480000E+08 -2.00000000000E+02 +0.00000000000E+00 -2.00000000000E+02 +0.00000000000E+00 -7.41937040868E+01 -5.81794617861E+01 -2.79259916650E+01 +8.80395783864E+01
1.05099475000E+08 -2.00000000000E+02 +0.00000000000E+00 -2.00000000000E+02 +0.00000000000E+00 -7.36783692103E+01 -6.71706348435E+01 -2.78460424952E+01 +8.54240165404E+01
1.06099470000E+08 -2.00000000000E+02 +0.00000000000E+00 -2.00000000000E+02 +0.00000000000E+00 -7.39605100072E+01 -7.65607571252E+01 -2.77694931878E+01 +8.28196799291E+01
1.07099465000E+08 -2.00000000000E+02 +0.00000000000E+00 -2.00000000000E+02 +0.00000000000E+00 -7.31179013802E+01 -9.83123700114E+01 -2.77006789279E+01 +8.02244652238E+01
1.08099460000E+08 -2.00000000000E+02 +0.00000000000E+00 -2.00000000000E+02 +0.00000000000E+00 -7.30391778640E+01 -1.03586848533E+02 -2.76432599506E+01 +7.76191020824E+01
1.09099455000E+08 -2.00000000000E+02 +0.00000000000E+00 -2.00000000000E+02 +0.00000000000E+00 -7.48047709392E+01 -1.14002785220E+02 -2.75966205778E+01 +7.50204962981E+01
1.10099450000E+08 -2.00000000000E+02 +0.00000000000E+00 -2.00000000000E+02 +0.00000000000E+00 -7.45495364974E+01 -1.25041394991E+02 -2.75429549808E+01 +7.24117003715E+01
1.11099445000E+08 -2.00000000000E+02 +0.00000000000E+00 -2.00000000000E+02 +0.00000000000E+00 -7.38906871037E+01 -1.31868803642E+02 -2.75032200839E+01 +6.98439905327E+01
1.12099440000E+08 -2.00000000000E+02 +0.00000000000E+00 -2.00000000000E+02 +0.00000000000E+00 -7.49725217422E+01 -1.45528233602E+02 -2.74740780359E+01 +6.72998630419E+01
1.13099435000E+08 -2.00000000000E+02 +0.00000000000E+00 -2.00000000000E+02 +0.00000000000E+00 -7.42773862488E+01 -1.65327361945E+02 -2.74493039832E+01 +6.47539447048E+01
1.14099430000E+08 -2.00000000000E+02 +0.00000000000E+00 -2.00000000000E+02 +0.00000000000E+00 -7.37106633829E+01 +1.79399303594E+02 -2.74244207667E+01 +6.22070445893E+01
1.15099425000E+08 -2.00000000000E+02 +0.00000000000E+00 -2.00000000000E+02 +0.00000000000E+00 -7.49541778796E+01 +1.71630567983E+02 -2.74108850614E+01 +5.96797036376E+01
